
T470F0 000:639 SEGGER J-Link V6.10c Log File (0000ms, 0129ms total)
T470F0 000:639 DLL Compiled: Sep 28 2016 18:45:15 (0000ms, 0129ms total)
T470F0 000:639 Logging started @ 2017-03-21 14:25 (0000ms, 0129ms total)
T470F0 000:639 JLINK_SetWarnOutHandler(...) (0000ms, 0129ms total)
T470F0 000:639 JLINK_OpenEx(...)
Firmware: J-Link OB-SAM3U128-V2-NordicSemi compiled Sep 26 2016 11:30:32
Hardware: V1.00
S/N: 681366866WEBSRV Webserver running on local port 19080 (0028ms, 0157ms total)
T470F0 000:639   returns O.K. (0028ms, 0157ms total)
T470F0 000:667 JLINK_SetErrorOutHandler(...) (0000ms, 0157ms total)
T470F0 000:667 JLINK_ExecCommand("ProjectFile = "D:\Project\Nordic\Ble_to_Ethernet\FW\TFTP_Bootloader\nRF5_TFTP_SDK_12.2.0\examples\dfu\bootloader_tftp\pca10040_debug\arm5_no_packs\JLinkSettings.ini"", ...). C:\Program Files (x86)\SEGGER\JLink_V610c\JLinkDevices.xml evaluated successfully.  returns 0x00 (0083ms, 0240ms total)
T470F0 000:752 JLINK_ExecCommand("Device = nRF52832_xxAA", ...). Device "NRF52832_XXAA" selected.  returns 0x00 (0003ms, 0243ms total)
T470F0 000:755 JLINK_ExecCommand("DisableConnectionTimeout", ...).   returns 0x01 (0000ms, 0243ms total)
T470F0 000:755 JLINK_GetHardwareVersion()  returns 0x2710 (0000ms, 0243ms total)
T470F0 000:755 JLINK_GetDLLVersion()  returns 61003 (0000ms, 0243ms total)
T470F0 000:755 JLINK_GetFirmwareString(...) (0000ms, 0243ms total)
T470F0 000:761 JLINK_GetDLLVersion()  returns 61003 (0000ms, 0243ms total)
T470F0 000:761 JLINK_GetCompileDateTime() (0000ms, 0243ms total)
T470F0 000:763 JLINK_GetFirmwareString(...) (0000ms, 0243ms total)
T470F0 000:765 JLINK_GetHardwareVersion()  returns 0x2710 (0000ms, 0243ms total)
T470F0 000:769 JLINK_TIF_Select(JLINKARM_TIF_SWD)  returns 0x00 (0008ms, 0251ms total)
T470F0 000:777 JLINK_SetSpeed(5000) (0001ms, 0252ms total)
T470F0 000:778 JLINK_GetId() >0x108 TIF>Found SWD-DP with ID 0x2BA01477 >0x0D TIF> >0x28 TIF> >0x0D TIF> >0x28 TIF> >0x0D TIF> >0x28 TIF> >0x0D TIF> >0x28 TIF> >0x35 TIF> >0x0D TIF> >0x28 TIF> >0x0D TIF> >0x28 TIF> >0x35 TIF> >0x35 TIF> >0x35 TIF>AP-IDR: 0x24770011, Type: AHB-AP >0x0D TIF> >0x28 TIF> >0x0D TIF> >0x28 TIF> >0x0D TIF> >0x28 TIF> >0x35 TIF> >0x35 TIF> >0x0D TIF> >0x28 TIF> >0x35 TIF> >0x35 TIF>Found Cortex-M4 r0p1, Little endian. -- CPU_ReadMem(4 bytes @ 0xE000EDF0)
 -- CPU_ReadMem(4 bytes @ 0xE0002000)FPUnit: 6 code (BP) slots and 2 literal slots -- CPU_ReadMem(4 bytes @ 0xE000EDFC) -- CPU_WriteMem(4 bytes @ 0xE000EDFC) -- CPU_ReadMem(4 bytes @ 0xE0001000) -- CPU_WriteMem(4 bytes @ 0xE0001000) -- CPU_ReadMem(4 bytes @ 0xE000ED88) -- CPU_WriteMem(4 bytes @ 0xE000ED88) -- CPU_ReadMem(4 bytes @ 0xE000ED88) -- CPU_WriteMem(4 bytes @ 0xE000ED88)CoreSight components:ROMTbl 0 @ E00FF000 -- CPU_ReadMem(16 bytes @ 0xE00FF000) -- CPU_ReadMem(16 bytes @ 0xE000EFF0)
 -- CPU_ReadMem(16 bytes @ 0xE000EFE0)ROMTbl 0 [0]: FFF0F000, CID: B105E00D, PID: 000BB00C SCS -- CPU_ReadMem(16 bytes @ 0xE0001FF0) -- CPU_ReadMem(16 bytes @ 0xE0001FE0)ROMTbl 0 [1]: FFF02000, CID: B105E00D, PID: 003BB002 DWT -- CPU_ReadMem(16 bytes @ 0xE0002FF0) -- CPU_ReadMem(16 bytes @ 0xE0002FE0)ROMTbl 0 [2]: FFF03000, CID: B105E00D, PID: 002BB003 FPB -- CPU_ReadMem(16 bytes @ 0xE0000FF0) -- CPU_ReadMem(16 bytes @ 0xE0000FE0)ROMTbl 0 [3]: FFF01000, CID: B105E00D, PID: 003BB001 ITM
 -- CPU_ReadMem(16 bytes @ 0xE00FF010) -- CPU_ReadMem(16 bytes @ 0xE0040FF0) -- CPU_ReadMem(16 bytes @ 0xE0040FE0)ROMTbl 0 [4]: FFF41000, CID: B105900D, PID: 000BB9A1 TPIU -- CPU_ReadMem(16 bytes @ 0xE0041FF0) -- CPU_ReadMem(16 bytes @ 0xE0041FE0)ROMTbl 0 [5]: FFF42000, CID: B105900D, PID: 000BB925 ETM >0x35 TIF>  returns 0x2BA01477 (0146ms, 0398ms total)
T470F0 000:924 JLINK_GetDLLVersion()  returns 61003 (0000ms, 0398ms total)
T470F0 000:924 JLINK_CORE_GetFound()  returns 0xE0000FF (0000ms, 0398ms total)
T470F0 000:924 JLINK_GetDebugInfo(0x100) -- Value=0xE00FF000  returns 0x00 (0000ms, 0398ms total)
T470F0 000:926 JLINK_GetDebugInfo(0x100) -- Value=0xE00FF000  returns 0x00 (0000ms, 0398ms total)
T470F0 000:926 JLINK_GetDebugInfo(0x101) -- Value=0xE0041000  returns 0x00 (0000ms, 0398ms total)
T470F0 000:926 JLINK_GetDebugInfo(0x102) -- Value=0x00000000  returns 0x00 (0000ms, 0398ms total)
T470F0 000:926 JLINK_GetDebugInfo(0x103) -- Value=0xE0040000  returns 0x00 (0000ms, 0398ms total)
T470F0 000:926 JLINK_GetDebugInfo(0x104) -- Value=0xE0000000  returns 0x00 (0000ms, 0398ms total)
T470F0 000:926 JLINK_GetDebugInfo(0x105) -- Value=0xE0001000  returns 0x00 (0000ms, 0398ms total)
T470F0 000:926 JLINK_GetDebugInfo(0x106) -- Value=0xE0002000  returns 0x00 (0000ms, 0398ms total)
T470F0 000:926 JLINK_GetDebugInfo(0x107) -- Value=0xE000E000  returns 0x00 (0000ms, 0398ms total)
T470F0 000:926 JLINK_GetDebugInfo(0x10C) -- Value=0xE000EDF0  returns 0x00 (0000ms, 0398ms total)
T470F0 000:927 JLINK_ReadMemU32(0xE000EF40, 0x0001 Items, ...) -- CPU is running -- CPU_ReadMem(4 bytes @ 0xE000EF40) - Data: 21 00 11 10  returns 0x01 (0001ms, 0400ms total)
T470F0 000:928 JLINK_ReadMemU32(0xE000EF44, 0x0001 Items, ...) -- CPU is running -- CPU_ReadMem(4 bytes @ 0xE000EF44) - Data: 11 00 00 11  returns 0x01 (0002ms, 0402ms total)
T470F0 000:930 JLINK_ReadMemU32(0xE000ED00, 0x0001 Items, ...) -- CPU is running -- CPU_ReadMem(4 bytes @ 0xE000ED00) - Data: 41 C2 0F 41  returns 0x01 (0002ms, 0404ms total)
T470F0 000:932 JLINK_SetResetType(JLINKARM_RESET_TYPE_NORMAL)  returns JLINKARM_RESET_TYPE_NORMAL (0000ms, 0404ms total)
T470F0 000:932 JLINK_Reset() -- CPU is running -- CPU_WriteMem(4 bytes @ 0xE000EDF0) -- CPU is running -- CPU_WriteMem(4 bytes @ 0xE000EDFC) >0x35 TIF> -- CPU is running -- CPU_WriteMem(4 bytes @ 0xE000ED0C) -- CPU is running -- CPU_ReadMem(4 bytes @ 0xE000EDF0) -- CPU is running -- CPU_ReadMem(4 bytes @ 0xE000EDF0) -- CPU is running -- CPU_WriteMem(4 bytes @ 0xE000EDF0) -- CPU is running -- CPU_WriteMem(4 bytes @ 0xE000EDFC) -- CPU is running -- CPU_ReadMem(4 bytes @ 0xE000EDF0)
 -- CPU_WriteMem(4 bytes @ 0xE0002000) -- CPU_ReadMem(4 bytes @ 0xE000EDFC) -- CPU_ReadMem(4 bytes @ 0xE0001000) (0041ms, 0445ms total)
T470F0 000:973 JLINK_Halt()  returns 0x00 (0000ms, 0445ms total)
T470F0 000:973 JLINK_IsHalted()  returns TRUE (0000ms, 0445ms total)
T470F0 000:973 JLINK_ReadMemU32(0xE000EDF0, 0x0001 Items, ...) -- CPU_ReadMem(4 bytes @ 0xE000EDF0) - Data: 03 00 03 00  returns 0x01 (0002ms, 0447ms total)
T470F0 000:975 JLINK_WriteU32(0xE000EDF0, 0xA05F0003) -- CPU_WriteMem(4 bytes @ 0xE000EDF0)  returns 0x00 (0002ms, 0449ms total)
T470F0 000:977 JLINK_WriteU32(0xE000EDFC, 0x01000000) -- CPU_WriteMem(4 bytes @ 0xE000EDFC)  returns 0x00 (0002ms, 0451ms total)
T470F0 000:986 JLINK_GetHWStatus(...)  returns 0x00 (0002ms, 0453ms total)
T470F0 000:992 JLINK_GetNumBPUnits(Type = 0xFFFFFF00)  returns 0x06 (0000ms, 0453ms total)
T470F0 000:992 JLINK_GetNumBPUnits(Type = 0xF0)  returns 0x2000 (0000ms, 0453ms total)
T470F0 000:992 JLINK_GetNumWPUnits()  returns 0x04 (0000ms, 0453ms total)
T470F0 000:996 JLINK_GetSpeed()  returns 0x3E8 (0000ms, 0453ms total)
T470F0 000:999 JLINK_ReadMemU32(0xE000E004, 0x0001 Items, ...) -- CPU_ReadMem(4 bytes @ 0xE000E004) - Data: 01 00 00 00  returns 0x01 (0002ms, 0455ms total)
T470F0 001:001 JLINK_ReadMemU32(0xE000E004, 0x0001 Items, ...) -- CPU_ReadMem(4 bytes @ 0xE000E004) - Data: 01 00 00 00  returns 0x01 (0002ms, 0457ms total)
T470F0 001:003 JLINK_WriteMem(0xE0001000, 0x001C Bytes, ...) - Data: 01 00 00 00 00 00 00 00 00 00 00 00 00 00 00 00 ... -- CPU_WriteMem(28 bytes @ 0xE0001000)  returns 0x1C (0002ms, 0459ms total)
T470F0 001:005 JLINK_ReadMem (0xE0001000, 0x001C Bytes, ...) -- CPU_ReadMem(28 bytes @ 0xE0001000) - Data: 01 00 00 40 00 00 00 00 00 00 00 00 00 00 00 00 ...  returns 0x00 (0002ms, 0461ms total)
T470F0 001:007 JLINK_Halt()  returns 0x00 (0000ms, 0461ms total)
T470F0 001:007 JLINK_IsHalted()  returns TRUE (0000ms, 0461ms total)
T470F0 001:009 JLINK_WriteMem(0x20000000, 0x0228 Bytes, ...) - Data: 00 BE 0A E0 0D 78 2D 06 68 40 08 24 40 00 00 D3 ... -- CPU_WriteMem(552 bytes @ 0x20000000)  returns 0x228 (0010ms, 0471ms total)
T470F0 001:019 JLINK_WriteReg(R0, 0x00000000)  returns 0x00 (0000ms, 0471ms total)
T470F0 001:019 JLINK_WriteReg(R1, 0x03D09000)  returns 0x00 (0000ms, 0471ms total)
T470F0 001:019 JLINK_WriteReg(R2, 0x00000001)  returns 0x00 (0000ms, 0471ms total)
T470F0 001:019 JLINK_WriteReg(R3, 0x00000000)  returns 0x00 (0000ms, 0471ms total)
T470F0 001:019 JLINK_WriteReg(R4, 0x00000000)  returns 0x00 (0000ms, 0471ms total)
T470F0 001:019 JLINK_WriteReg(R5, 0x00000000)  returns 0x00 (0000ms, 0471ms total)
T470F0 001:019 JLINK_WriteReg(R6, 0x00000000)  returns 0x00 (0000ms, 0471ms total)
T470F0 001:019 JLINK_WriteReg(R7, 0x00000000)  returns 0x00 (0000ms, 0471ms total)
T470F0 001:019 JLINK_WriteReg(R8, 0x00000000)  returns 0x00 (0000ms, 0471ms total)
T470F0 001:019 JLINK_WriteReg(R9, 0x20000224)  returns 0x00 (0000ms, 0471ms total)
T470F0 001:019 JLINK_WriteReg(R10, 0x00000000)  returns 0x00 (0000ms, 0471ms total)
T470F0 001:019 JLINK_WriteReg(R11, 0x00000000)  returns 0x00 (0000ms, 0471ms total)
T470F0 001:019 JLINK_WriteReg(R12, 0x00000000)  returns 0x00 (0000ms, 0471ms total)
T470F0 001:019 JLINK_WriteReg(R13 (SP), 0x20002000)  returns 0x00 (0000ms, 0471ms total)
T470F0 001:019 JLINK_WriteReg(R14, 0x20000001)  returns 0x00 (0001ms, 0472ms total)
T470F0 001:020 JLINK_WriteReg(R15 (PC), 0x2000003C)  returns 0x00 (0000ms, 0472ms total)
T470F0 001:020 JLINK_WriteReg(XPSR, 0x01000000)  returns 0x00 (0000ms, 0472ms total)
T470F0 001:020 JLINK_WriteReg(MSP, 0x20002000)  returns 0x00 (0000ms, 0472ms total)
T470F0 001:020 JLINK_WriteReg(PSP, 0x20002000)  returns 0x00 (0000ms, 0472ms total)
T470F0 001:020 JLINK_WriteReg(CFBP, 0x00000000)  returns 0x00 (0000ms, 0472ms total)
T470F0 001:020 JLINK_SetBPEx(Addr = 0x20000000, Type = 0xFFFFFFF2) -- CPU_ReadMem(2 bytes @ 0x20000000)  returns 0x00000001 (0001ms, 0473ms total)
T470F0 001:022 JLINK_Go() -- CPU_WriteMem(2 bytes @ 0x20000000) -- CPU_ReadMem(4 bytes @ 0xE0001000) -- CPU_WriteMem(4 bytes @ 0xE0002008) -- CPU_WriteMem(4 bytes @ 0xE000200C) -- CPU_WriteMem(4 bytes @ 0xE0002010) -- CPU_WriteMem(4 bytes @ 0xE0002014) -- CPU_WriteMem(4 bytes @ 0xE0002018) -- CPU_WriteMem(4 bytes @ 0xE000201C) -- CPU_WriteMem(4 bytes @ 0xE0001004) (0016ms, 0490ms total)
T470F0 001:038 JLINK_IsHalted() -- CPU_ReadMem(2 bytes @ 0x20000000)  returns TRUE (0010ms, 0500ms total)
T470F0 001:048 JLINK_ReadReg(R15 (PC))  returns 0x20000000 (0001ms, 0491ms total)
T470F0 001:049 JLINK_ClrBPEx(BPHandle = 0x00000001)  returns 0x00 (0000ms, 0491ms total)
T470F0 001:049 JLINK_ReadReg(R0)  returns 0x00000000 (0000ms, 0491ms total)
T470F0 001:049 JLINK_WriteReg(R0, 0x00073000)  returns 0x00 (0000ms, 0491ms total)
T470F0 001:049 JLINK_WriteReg(R1, 0x00001000)  returns 0x00 (0000ms, 0491ms total)
T470F0 001:049 JLINK_WriteReg(R2, 0x000000FF)  returns 0x00 (0000ms, 0491ms total)
T470F0 001:049 JLINK_WriteReg(R3, 0x00000000)  returns 0x00 (0001ms, 0492ms total)
T470F0 001:050 JLINK_WriteReg(R4, 0x00000000)  returns 0x00 (0000ms, 0492ms total)
T470F0 001:050 JLINK_WriteReg(R5, 0x00000000)  returns 0x00 (0000ms, 0492ms total)
T470F0 001:050 JLINK_WriteReg(R6, 0x00000000)  returns 0x00 (0000ms, 0492ms total)
T470F0 001:050 JLINK_WriteReg(R7, 0x00000000)  returns 0x00 (0000ms, 0492ms total)
T470F0 001:050 JLINK_WriteReg(R8, 0x00000000)  returns 0x00 (0000ms, 0492ms total)
T470F0 001:050 JLINK_WriteReg(R9, 0x20000224)  returns 0x00 (0000ms, 0492ms total)
T470F0 001:050 JLINK_WriteReg(R10, 0x00000000)  returns 0x00 (0000ms, 0492ms total)
T470F0 001:050 JLINK_WriteReg(R11, 0x00000000)  returns 0x00 (0000ms, 0492ms total)
T470F0 001:050 JLINK_WriteReg(R12, 0x00000000)  returns 0x00 (0000ms, 0492ms total)
T470F0 001:050 JLINK_WriteReg(R13 (SP), 0x20002000)  returns 0x00 (0000ms, 0492ms total)
T470F0 001:050 JLINK_WriteReg(R14, 0x20000001)  returns 0x00 (0000ms, 0492ms total)
T470F0 001:050 JLINK_WriteReg(R15 (PC), 0x20000110)  returns 0x00 (0000ms, 0492ms total)
T470F0 001:050 JLINK_WriteReg(XPSR, 0x01000000)  returns 0x00 (0000ms, 0492ms total)
T470F0 001:050 JLINK_WriteReg(MSP, 0x20002000)  returns 0x00 (0000ms, 0492ms total)
T470F0 001:050 JLINK_WriteReg(PSP, 0x20002000)  returns 0x00 (0001ms, 0493ms total)
T470F0 001:051 JLINK_WriteReg(CFBP, 0x00000000)  returns 0x00 (0000ms, 0493ms total)
T470F0 001:051 JLINK_SetBPEx(Addr = 0x20000000, Type = 0xFFFFFFF2)  returns 0x00000002 (0000ms, 0493ms total)
T470F0 001:051 JLINK_Go() -- CPU_ReadMem(4 bytes @ 0xE0001000) (0007ms, 0500ms total)
T470F0 001:058 JLINK_IsHalted() -- CPU_ReadMem(2 bytes @ 0x20000000)  returns TRUE (0011ms, 0511ms total)
T470F0 001:069 JLINK_ReadReg(R15 (PC))  returns 0x20000000 (0000ms, 0500ms total)
T470F0 001:069 JLINK_ClrBPEx(BPHandle = 0x00000002)  returns 0x00 (0000ms, 0500ms total)
T470F0 001:069 JLINK_ReadReg(R0)  returns 0x00000000 (0000ms, 0500ms total)
T470F0 001:070 JLINK_WriteReg(R0, 0x00074000)  returns 0x00 (0000ms, 0500ms total)
T470F0 001:070 JLINK_WriteReg(R1, 0x00001000)  returns 0x00 (0000ms, 0500ms total)
T470F0 001:070 JLINK_WriteReg(R2, 0x000000FF)  returns 0x00 (0000ms, 0500ms total)
T470F0 001:070 JLINK_WriteReg(R3, 0x00000000)  returns 0x00 (0000ms, 0500ms total)
T470F0 001:070 JLINK_WriteReg(R4, 0x00000000)  returns 0x00 (0000ms, 0500ms total)
T470F0 001:070 JLINK_WriteReg(R5, 0x00000000)  returns 0x00 (0000ms, 0500ms total)
T470F0 001:070 JLINK_WriteReg(R6, 0x00000000)  returns 0x00 (0000ms, 0500ms total)
T470F0 001:070 JLINK_WriteReg(R7, 0x00000000)  returns 0x00 (0000ms, 0500ms total)
T470F0 001:070 JLINK_WriteReg(R8, 0x00000000)  returns 0x00 (0000ms, 0500ms total)
T470F0 001:070 JLINK_WriteReg(R9, 0x20000224)  returns 0x00 (0000ms, 0500ms total)
T470F0 001:070 JLINK_WriteReg(R10, 0x00000000)  returns 0x00 (0000ms, 0500ms total)
T470F0 001:070 JLINK_WriteReg(R11, 0x00000000)  returns 0x00 (0000ms, 0500ms total)
T470F0 001:070 JLINK_WriteReg(R12, 0x00000000)  returns 0x00 (0000ms, 0500ms total)
T470F0 001:070 JLINK_WriteReg(R13 (SP), 0x20002000)  returns 0x00 (0000ms, 0500ms total)
T470F0 001:070 JLINK_WriteReg(R14, 0x20000001)  returns 0x00 (0001ms, 0501ms total)
T470F0 001:071 JLINK_WriteReg(R15 (PC), 0x20000110)  returns 0x00 (0000ms, 0501ms total)
T470F0 001:071 JLINK_WriteReg(XPSR, 0x01000000)  returns 0x00 (0000ms, 0501ms total)
T470F0 001:071 JLINK_WriteReg(MSP, 0x20002000)  returns 0x00 (0000ms, 0501ms total)
T470F0 001:071 JLINK_WriteReg(PSP, 0x20002000)  returns 0x00 (0000ms, 0501ms total)
T470F0 001:071 JLINK_WriteReg(CFBP, 0x00000000)  returns 0x00 (0000ms, 0501ms total)
T470F0 001:071 JLINK_SetBPEx(Addr = 0x20000000, Type = 0xFFFFFFF2)  returns 0x00000003 (0000ms, 0501ms total)
T470F0 001:071 JLINK_Go() -- CPU_ReadMem(4 bytes @ 0xE0001000) (0008ms, 0509ms total)
T470F0 001:079 JLINK_IsHalted() -- CPU_ReadMem(2 bytes @ 0x20000000)  returns TRUE (0012ms, 0521ms total)
T470F0 001:091 JLINK_ReadReg(R15 (PC))  returns 0x20000000 (0000ms, 0509ms total)
T470F0 001:091 JLINK_ClrBPEx(BPHandle = 0x00000003)  returns 0x00 (0000ms, 0509ms total)
T470F0 001:091 JLINK_ReadReg(R0)  returns 0x00000000 (0000ms, 0509ms total)
T470F0 001:091 JLINK_WriteReg(R0, 0x00075000)  returns 0x00 (0000ms, 0509ms total)
T470F0 001:091 JLINK_WriteReg(R1, 0x00001000)  returns 0x00 (0000ms, 0509ms total)
T470F0 001:091 JLINK_WriteReg(R2, 0x000000FF)  returns 0x00 (0000ms, 0509ms total)
T470F0 001:091 JLINK_WriteReg(R3, 0x00000000)  returns 0x00 (0000ms, 0509ms total)
T470F0 001:091 JLINK_WriteReg(R4, 0x00000000)  returns 0x00 (0000ms, 0509ms total)
T470F0 001:092 JLINK_WriteReg(R5, 0x00000000)  returns 0x00 (0000ms, 0510ms total)
T470F0 001:092 JLINK_WriteReg(R6, 0x00000000)  returns 0x00 (0000ms, 0510ms total)
T470F0 001:092 JLINK_WriteReg(R7, 0x00000000)  returns 0x00 (0000ms, 0510ms total)
T470F0 001:092 JLINK_WriteReg(R8, 0x00000000)  returns 0x00 (0000ms, 0510ms total)
T470F0 001:092 JLINK_WriteReg(R9, 0x20000224)  returns 0x00 (0000ms, 0510ms total)
T470F0 001:092 JLINK_WriteReg(R10, 0x00000000)  returns 0x00 (0000ms, 0510ms total)
T470F0 001:092 JLINK_WriteReg(R11, 0x00000000)  returns 0x00 (0000ms, 0510ms total)
T470F0 001:092 JLINK_WriteReg(R12, 0x00000000)  returns 0x00 (0000ms, 0510ms total)
T470F0 001:092 JLINK_WriteReg(R13 (SP), 0x20002000)  returns 0x00 (0000ms, 0510ms total)
T470F0 001:092 JLINK_WriteReg(R14, 0x20000001)  returns 0x00 (0000ms, 0510ms total)
T470F0 001:092 JLINK_WriteReg(R15 (PC), 0x20000110)  returns 0x00 (0000ms, 0510ms total)
T470F0 001:092 JLINK_WriteReg(XPSR, 0x01000000)  returns 0x00 (0000ms, 0510ms total)
T470F0 001:092 JLINK_WriteReg(MSP, 0x20002000)  returns 0x00 (0000ms, 0510ms total)
T470F0 001:092 JLINK_WriteReg(PSP, 0x20002000)  returns 0x00 (0000ms, 0510ms total)
T470F0 001:092 JLINK_WriteReg(CFBP, 0x00000000)  returns 0x00 (0000ms, 0510ms total)
T470F0 001:092 JLINK_SetBPEx(Addr = 0x20000000, Type = 0xFFFFFFF2)  returns 0x00000004 (0000ms, 0510ms total)
T470F0 001:092 JLINK_Go() -- CPU_ReadMem(4 bytes @ 0xE0001000) (0007ms, 0517ms total)
T470F0 001:099 JLINK_IsHalted() -- CPU_ReadMem(2 bytes @ 0x20000000)  returns TRUE (0012ms, 0529ms total)
T470F0 001:111 JLINK_ReadReg(R15 (PC))  returns 0x20000000 (0000ms, 0517ms total)
T470F0 001:111 JLINK_ClrBPEx(BPHandle = 0x00000004)  returns 0x00 (0000ms, 0517ms total)
T470F0 001:111 JLINK_ReadReg(R0)  returns 0x00000000 (0000ms, 0517ms total)
T470F0 001:111 JLINK_WriteReg(R0, 0x00076000)  returns 0x00 (0000ms, 0517ms total)
T470F0 001:112 JLINK_WriteReg(R1, 0x00001000)  returns 0x00 (0000ms, 0518ms total)
T470F0 001:112 JLINK_WriteReg(R2, 0x000000FF)  returns 0x00 (0000ms, 0518ms total)
T470F0 001:112 JLINK_WriteReg(R3, 0x00000000)  returns 0x00 (0000ms, 0518ms total)
T470F0 001:112 JLINK_WriteReg(R4, 0x00000000)  returns 0x00 (0000ms, 0518ms total)
T470F0 001:112 JLINK_WriteReg(R5, 0x00000000)  returns 0x00 (0000ms, 0518ms total)
T470F0 001:112 JLINK_WriteReg(R6, 0x00000000)  returns 0x00 (0000ms, 0518ms total)
T470F0 001:112 JLINK_WriteReg(R7, 0x00000000)  returns 0x00 (0000ms, 0518ms total)
T470F0 001:112 JLINK_WriteReg(R8, 0x00000000)  returns 0x00 (0000ms, 0518ms total)
T470F0 001:112 JLINK_WriteReg(R9, 0x20000224)  returns 0x00 (0000ms, 0518ms total)
T470F0 001:112 JLINK_WriteReg(R10, 0x00000000)  returns 0x00 (0000ms, 0518ms total)
T470F0 001:112 JLINK_WriteReg(R11, 0x00000000)  returns 0x00 (0000ms, 0518ms total)
T470F0 001:112 JLINK_WriteReg(R12, 0x00000000)  returns 0x00 (0000ms, 0518ms total)
T470F0 001:112 JLINK_WriteReg(R13 (SP), 0x20002000)  returns 0x00 (0000ms, 0518ms total)
T470F0 001:112 JLINK_WriteReg(R14, 0x20000001)  returns 0x00 (0000ms, 0518ms total)
T470F0 001:112 JLINK_WriteReg(R15 (PC), 0x20000110)  returns 0x00 (0000ms, 0518ms total)
T470F0 001:112 JLINK_WriteReg(XPSR, 0x01000000)  returns 0x00 (0000ms, 0518ms total)
T470F0 001:112 JLINK_WriteReg(MSP, 0x20002000)  returns 0x00 (0000ms, 0518ms total)
T470F0 001:112 JLINK_WriteReg(PSP, 0x20002000)  returns 0x00 (0000ms, 0518ms total)
T470F0 001:112 JLINK_WriteReg(CFBP, 0x00000000)  returns 0x00 (0000ms, 0518ms total)
T470F0 001:112 JLINK_SetBPEx(Addr = 0x20000000, Type = 0xFFFFFFF2)  returns 0x00000005 (0000ms, 0518ms total)
T470F0 001:112 JLINK_Go() -- CPU_ReadMem(4 bytes @ 0xE0001000) (0007ms, 0525ms total)
T470F0 001:119 JLINK_IsHalted() -- CPU_ReadMem(2 bytes @ 0x20000000)  returns TRUE (0013ms, 0538ms total)
T470F0 001:132 JLINK_ReadReg(R15 (PC))  returns 0x20000000 (0000ms, 0525ms total)
T470F0 001:132 JLINK_ClrBPEx(BPHandle = 0x00000005)  returns 0x00 (0000ms, 0525ms total)
T470F0 001:132 JLINK_ReadReg(R0)  returns 0x00000000 (0000ms, 0525ms total)
T470F0 001:132 JLINK_WriteReg(R0, 0x00077000)  returns 0x00 (0000ms, 0525ms total)
T470F0 001:132 JLINK_WriteReg(R1, 0x00001000)  returns 0x00 (0000ms, 0525ms total)
T470F0 001:133 JLINK_WriteReg(R2, 0x000000FF)  returns 0x00 (0000ms, 0526ms total)
T470F0 001:133 JLINK_WriteReg(R3, 0x00000000)  returns 0x00 (0000ms, 0526ms total)
T470F0 001:133 JLINK_WriteReg(R4, 0x00000000)  returns 0x00 (0000ms, 0526ms total)
T470F0 001:133 JLINK_WriteReg(R5, 0x00000000)  returns 0x00 (0000ms, 0526ms total)
T470F0 001:133 JLINK_WriteReg(R6, 0x00000000)  returns 0x00 (0000ms, 0526ms total)
T470F0 001:133 JLINK_WriteReg(R7, 0x00000000)  returns 0x00 (0000ms, 0526ms total)
T470F0 001:133 JLINK_WriteReg(R8, 0x00000000)  returns 0x00 (0000ms, 0526ms total)
T470F0 001:133 JLINK_WriteReg(R9, 0x20000224)  returns 0x00 (0000ms, 0526ms total)
T470F0 001:133 JLINK_WriteReg(R10, 0x00000000)  returns 0x00 (0000ms, 0526ms total)
T470F0 001:133 JLINK_WriteReg(R11, 0x00000000)  returns 0x00 (0000ms, 0526ms total)
T470F0 001:133 JLINK_WriteReg(R12, 0x00000000)  returns 0x00 (0000ms, 0526ms total)
T470F0 001:133 JLINK_WriteReg(R13 (SP), 0x20002000)  returns 0x00 (0000ms, 0526ms total)
T470F0 001:133 JLINK_WriteReg(R14, 0x20000001)  returns 0x00 (0000ms, 0526ms total)
T470F0 001:133 JLINK_WriteReg(R15 (PC), 0x20000110)  returns 0x00 (0000ms, 0526ms total)
T470F0 001:133 JLINK_WriteReg(XPSR, 0x01000000)  returns 0x00 (0000ms, 0526ms total)
T470F0 001:133 JLINK_WriteReg(MSP, 0x20002000)  returns 0x00 (0000ms, 0526ms total)
T470F0 001:133 JLINK_WriteReg(PSP, 0x20002000)  returns 0x00 (0000ms, 0526ms total)
T470F0 001:133 JLINK_WriteReg(CFBP, 0x00000000)  returns 0x00 (0000ms, 0526ms total)
T470F0 001:133 JLINK_SetBPEx(Addr = 0x20000000, Type = 0xFFFFFFF2)  returns 0x00000006 (0000ms, 0526ms total)
T470F0 001:133 JLINK_Go() -- CPU_ReadMem(4 bytes @ 0xE0001000) (0007ms, 0533ms total)
T470F0 001:140 JLINK_IsHalted() -- CPU_ReadMem(2 bytes @ 0x20000000)  returns TRUE (0011ms, 0544ms total)
T470F0 001:151 JLINK_ReadReg(R15 (PC))  returns 0x20000000 (0000ms, 0533ms total)
T470F0 001:151 JLINK_ClrBPEx(BPHandle = 0x00000006)  returns 0x00 (0000ms, 0533ms total)
T470F0 001:151 JLINK_ReadReg(R0)  returns 0x00000000 (0000ms, 0533ms total)
T470F0 001:152 JLINK_WriteReg(R0, 0x00078000)  returns 0x00 (0000ms, 0533ms total)
T470F0 001:152 JLINK_WriteReg(R1, 0x00001000)  returns 0x00 (0000ms, 0533ms total)
T470F0 001:152 JLINK_WriteReg(R2, 0x000000FF)  returns 0x00 (0000ms, 0533ms total)
T470F0 001:152 JLINK_WriteReg(R3, 0x00000000)  returns 0x00 (0000ms, 0533ms total)
T470F0 001:152 JLINK_WriteReg(R4, 0x00000000)  returns 0x00 (0000ms, 0533ms total)
T470F0 001:152 JLINK_WriteReg(R5, 0x00000000)  returns 0x00 (0000ms, 0533ms total)
T470F0 001:152 JLINK_WriteReg(R6, 0x00000000)  returns 0x00 (0000ms, 0533ms total)
T470F0 001:152 JLINK_WriteReg(R7, 0x00000000)  returns 0x00 (0000ms, 0533ms total)
T470F0 001:152 JLINK_WriteReg(R8, 0x00000000)  returns 0x00 (0000ms, 0533ms total)
T470F0 001:152 JLINK_WriteReg(R9, 0x20000224)  returns 0x00 (0000ms, 0533ms total)
T470F0 001:152 JLINK_WriteReg(R10, 0x00000000)  returns 0x00 (0000ms, 0533ms total)
T470F0 001:152 JLINK_WriteReg(R11, 0x00000000)  returns 0x00 (0000ms, 0533ms total)
T470F0 001:152 JLINK_WriteReg(R12, 0x00000000)  returns 0x00 (0000ms, 0533ms total)
T470F0 001:152 JLINK_WriteReg(R13 (SP), 0x20002000)  returns 0x00 (0000ms, 0533ms total)
T470F0 001:152 JLINK_WriteReg(R14, 0x20000001)  returns 0x00 (0000ms, 0533ms total)
T470F0 001:152 JLINK_WriteReg(R15 (PC), 0x20000110)  returns 0x00 (0000ms, 0533ms total)
T470F0 001:152 JLINK_WriteReg(XPSR, 0x01000000)  returns 0x00 (0000ms, 0533ms total)
T470F0 001:152 JLINK_WriteReg(MSP, 0x20002000)  returns 0x00 (0000ms, 0533ms total)
T470F0 001:152 JLINK_WriteReg(PSP, 0x20002000)  returns 0x00 (0000ms, 0533ms total)
T470F0 001:152 JLINK_WriteReg(CFBP, 0x00000000)  returns 0x00 (0000ms, 0533ms total)
T470F0 001:152 JLINK_SetBPEx(Addr = 0x20000000, Type = 0xFFFFFFF2)  returns 0x00000007 (0000ms, 0533ms total)
T470F0 001:152 JLINK_Go() -- CPU_ReadMem(4 bytes @ 0xE0001000) (0008ms, 0541ms total)
T470F0 001:160 JLINK_IsHalted() -- CPU_ReadMem(2 bytes @ 0x20000000)  returns TRUE (0011ms, 0552ms total)
T470F0 001:171 JLINK_ReadReg(R15 (PC))  returns 0x20000000 (0000ms, 0541ms total)
T470F0 001:171 JLINK_ClrBPEx(BPHandle = 0x00000007)  returns 0x00 (0000ms, 0541ms total)
T470F0 001:171 JLINK_ReadReg(R0)  returns 0x00000000 (0000ms, 0541ms total)
T470F0 001:172 JLINK_WriteReg(R0, 0x00000001)  returns 0x00 (0000ms, 0541ms total)
T470F0 001:172 JLINK_WriteReg(R1, 0x00001000)  returns 0x00 (0000ms, 0541ms total)
T470F0 001:172 JLINK_WriteReg(R2, 0x000000FF)  returns 0x00 (0000ms, 0541ms total)
T470F0 001:172 JLINK_WriteReg(R3, 0x00000000)  returns 0x00 (0000ms, 0541ms total)
T470F0 001:172 JLINK_WriteReg(R4, 0x00000000)  returns 0x00 (0000ms, 0541ms total)
T470F0 001:172 JLINK_WriteReg(R5, 0x00000000)  returns 0x00 (0000ms, 0541ms total)
T470F0 001:172 JLINK_WriteReg(R6, 0x00000000)  returns 0x00 (0000ms, 0541ms total)
T470F0 001:172 JLINK_WriteReg(R7, 0x00000000)  returns 0x00 (0000ms, 0541ms total)
T470F0 001:172 JLINK_WriteReg(R8, 0x00000000)  returns 0x00 (0000ms, 0541ms total)
T470F0 001:172 JLINK_WriteReg(R9, 0x20000224)  returns 0x00 (0000ms, 0541ms total)
T470F0 001:172 JLINK_WriteReg(R10, 0x00000000)  returns 0x00 (0000ms, 0541ms total)
T470F0 001:172 JLINK_WriteReg(R11, 0x00000000)  returns 0x00 (0000ms, 0541ms total)
T470F0 001:172 JLINK_WriteReg(R12, 0x00000000)  returns 0x00 (0000ms, 0541ms total)
T470F0 001:172 JLINK_WriteReg(R13 (SP), 0x20002000)  returns 0x00 (0000ms, 0541ms total)
T470F0 001:172 JLINK_WriteReg(R14, 0x20000001)  returns 0x00 (0000ms, 0541ms total)
T470F0 001:172 JLINK_WriteReg(R15 (PC), 0x20000084)  returns 0x00 (0000ms, 0541ms total)
T470F0 001:172 JLINK_WriteReg(XPSR, 0x01000000)  returns 0x00 (0000ms, 0541ms total)
T470F0 001:172 JLINK_WriteReg(MSP, 0x20002000)  returns 0x00 (0000ms, 0541ms total)
T470F0 001:172 JLINK_WriteReg(PSP, 0x20002000)  returns 0x00 (0000ms, 0541ms total)
T470F0 001:172 JLINK_WriteReg(CFBP, 0x00000000)  returns 0x00 (0000ms, 0541ms total)
T470F0 001:172 JLINK_SetBPEx(Addr = 0x20000000, Type = 0xFFFFFFF2)  returns 0x00000008 (0000ms, 0541ms total)
T470F0 001:172 JLINK_Go() -- CPU_ReadMem(4 bytes @ 0xE0001000) (0007ms, 0548ms total)
T470F0 001:180 JLINK_IsHalted() -- CPU_ReadMem(2 bytes @ 0x20000000)  returns TRUE (0011ms, 0560ms total)
T470F0 001:191 JLINK_ReadReg(R15 (PC))  returns 0x20000000 (0000ms, 0549ms total)
T470F0 001:191 JLINK_ClrBPEx(BPHandle = 0x00000008)  returns 0x00 (0000ms, 0549ms total)
T470F0 001:191 JLINK_ReadReg(R0)  returns 0x00000000 (0000ms, 0549ms total)
T470F0 001:191 JLINK_WriteMem(0x20000000, 0x00F8 Bytes, ...) - Data: 00 BE 0A E0 0D 78 2D 06 68 40 08 24 40 00 00 D3 ... -- CPU_WriteMem(248 bytes @ 0x20000000)  returns 0xF8 (0007ms, 0556ms total)
T470F0 001:198 JLINK_WriteReg(R0, 0x10001000)  returns 0x00 (0000ms, 0556ms total)
T470F0 001:198 JLINK_WriteReg(R1, 0x03D09000)  returns 0x00 (0000ms, 0556ms total)
T470F0 001:198 JLINK_WriteReg(R2, 0x00000001)  returns 0x00 (0000ms, 0556ms total)
T470F0 001:198 JLINK_WriteReg(R3, 0x00000000)  returns 0x00 (0000ms, 0556ms total)
T470F0 001:198 JLINK_WriteReg(R4, 0x00000000)  returns 0x00 (0000ms, 0556ms total)
T470F0 001:198 JLINK_WriteReg(R5, 0x00000000)  returns 0x00 (0000ms, 0556ms total)
T470F0 001:198 JLINK_WriteReg(R6, 0x00000000)  returns 0x00 (0000ms, 0556ms total)
T470F0 001:198 JLINK_WriteReg(R7, 0x00000000)  returns 0x00 (0000ms, 0556ms total)
T470F0 001:198 JLINK_WriteReg(R8, 0x00000000)  returns 0x00 (0000ms, 0556ms total)
T470F0 001:198 JLINK_WriteReg(R9, 0x200000F4)  returns 0x00 (0000ms, 0556ms total)
T470F0 001:198 JLINK_WriteReg(R10, 0x00000000)  returns 0x00 (0000ms, 0556ms total)
T470F0 001:198 JLINK_WriteReg(R11, 0x00000000)  returns 0x00 (0000ms, 0556ms total)
T470F0 001:198 JLINK_WriteReg(R12, 0x00000000)  returns 0x00 (0000ms, 0556ms total)
T470F0 001:198 JLINK_WriteReg(R13 (SP), 0x20002000)  returns 0x00 (0000ms, 0556ms total)
T470F0 001:198 JLINK_WriteReg(R14, 0x20000001)  returns 0x00 (0000ms, 0556ms total)
T470F0 001:198 JLINK_WriteReg(R15 (PC), 0x20000028)  returns 0x00 (0000ms, 0556ms total)
T470F0 001:198 JLINK_WriteReg(XPSR, 0x01000000)  returns 0x00 (0000ms, 0556ms total)
T470F0 001:198 JLINK_WriteReg(MSP, 0x20002000)  returns 0x00 (0000ms, 0556ms total)
T470F0 001:198 JLINK_WriteReg(PSP, 0x20002000)  returns 0x00 (0000ms, 0556ms total)
T470F0 001:198 JLINK_WriteReg(CFBP, 0x00000000)  returns 0x00 (0000ms, 0556ms total)
T470F0 001:198 JLINK_SetBPEx(Addr = 0x20000000, Type = 0xFFFFFFF2) -- CPU_ReadMem(2 bytes @ 0x20000000)  returns 0x00000009 (0003ms, 0559ms total)
T470F0 001:201 JLINK_Go() -- CPU_WriteMem(2 bytes @ 0x20000000) -- CPU_ReadMem(4 bytes @ 0xE0001000) (0010ms, 0569ms total)
T470F0 001:211 JLINK_IsHalted() -- CPU_ReadMem(2 bytes @ 0x20000000)  returns TRUE (0013ms, 0582ms total)
T470F0 001:224 JLINK_ReadReg(R15 (PC))  returns 0x20000000 (0000ms, 0569ms total)
T470F0 001:224 JLINK_ClrBPEx(BPHandle = 0x00000009)  returns 0x00 (0000ms, 0569ms total)
T470F0 001:224 JLINK_ReadReg(R0)  returns 0x00000000 (0000ms, 0569ms total)
T470F0 001:224 JLINK_WriteReg(R0, 0x10001000)  returns 0x00 (0001ms, 0570ms total)
T470F0 001:225 JLINK_WriteReg(R1, 0x00001000)  returns 0x00 (0000ms, 0570ms total)
T470F0 001:225 JLINK_WriteReg(R2, 0x000000FF)  returns 0x00 (0000ms, 0570ms total)
T470F0 001:225 JLINK_WriteReg(R3, 0x00000000)  returns 0x00 (0000ms, 0570ms total)
T470F0 001:225 JLINK_WriteReg(R4, 0x00000000)  returns 0x00 (0000ms, 0570ms total)
T470F0 001:225 JLINK_WriteReg(R5, 0x00000000)  returns 0x00 (0000ms, 0570ms total)
T470F0 001:225 JLINK_WriteReg(R6, 0x00000000)  returns 0x00 (0000ms, 0570ms total)
T470F0 001:225 JLINK_WriteReg(R7, 0x00000000)  returns 0x00 (0000ms, 0570ms total)
T470F0 001:225 JLINK_WriteReg(R8, 0x00000000)  returns 0x00 (0000ms, 0570ms total)
T470F0 001:225 JLINK_WriteReg(R9, 0x200000F4)  returns 0x00 (0000ms, 0570ms total)
T470F0 001:225 JLINK_WriteReg(R10, 0x00000000)  returns 0x00 (0000ms, 0570ms total)
T470F0 001:225 JLINK_WriteReg(R11, 0x00000000)  returns 0x00 (0000ms, 0570ms total)
T470F0 001:225 JLINK_WriteReg(R12, 0x00000000)  returns 0x00 (0000ms, 0570ms total)
T470F0 001:225 JLINK_WriteReg(R13 (SP), 0x20002000)  returns 0x00 (0000ms, 0570ms total)
T470F0 001:225 JLINK_WriteReg(R14, 0x20000001)  returns 0x00 (0000ms, 0570ms total)
T470F0 001:225 JLINK_WriteReg(R15 (PC), 0x200000D0)  returns 0x00 (0000ms, 0570ms total)
T470F0 001:225 JLINK_WriteReg(XPSR, 0x01000000)  returns 0x00 (0000ms, 0570ms total)
T470F0 001:225 JLINK_WriteReg(MSP, 0x20002000)  returns 0x00 (0000ms, 0570ms total)
T470F0 001:225 JLINK_WriteReg(PSP, 0x20002000)  returns 0x00 (0000ms, 0570ms total)
T470F0 001:225 JLINK_WriteReg(CFBP, 0x00000000)  returns 0x00 (0000ms, 0570ms total)
T470F0 001:225 JLINK_SetBPEx(Addr = 0x20000000, Type = 0xFFFFFFF2)  returns 0x0000000A (0000ms, 0570ms total)
T470F0 001:225 JLINK_Go() -- CPU_ReadMem(4 bytes @ 0xE0001000) (0009ms, 0579ms total)
T470F0 001:234 JLINK_IsHalted() -- CPU_ReadMem(2 bytes @ 0x20000000)  returns TRUE (0012ms, 0591ms total)
T470F0 001:246 JLINK_ReadReg(R15 (PC))  returns 0x20000000 (0000ms, 0579ms total)
T470F0 001:246 JLINK_ClrBPEx(BPHandle = 0x0000000A)  returns 0x00 (0000ms, 0579ms total)
T470F0 001:246 JLINK_ReadReg(R0)  returns 0x00000001 (0000ms, 0579ms total)
T470F0 001:246 JLINK_WriteReg(R0, 0x10001000)  returns 0x00 (0000ms, 0579ms total)
T470F0 001:246 JLINK_WriteReg(R1, 0x00001000)  returns 0x00 (0000ms, 0579ms total)
T470F0 001:246 JLINK_WriteReg(R2, 0x000000FF)  returns 0x00 (0000ms, 0579ms total)
T470F0 001:246 JLINK_WriteReg(R3, 0x00000000)  returns 0x00 (0000ms, 0579ms total)
T470F0 001:246 JLINK_WriteReg(R4, 0x00000000)  returns 0x00 (0000ms, 0579ms total)
T470F0 001:246 JLINK_WriteReg(R5, 0x00000000)  returns 0x00 (0000ms, 0579ms total)
T470F0 001:246 JLINK_WriteReg(R6, 0x00000000)  returns 0x00 (0000ms, 0579ms total)
T470F0 001:246 JLINK_WriteReg(R7, 0x00000000)  returns 0x00 (0000ms, 0579ms total)
T470F0 001:246 JLINK_WriteReg(R8, 0x00000000)  returns 0x00 (0000ms, 0579ms total)
T470F0 001:246 JLINK_WriteReg(R9, 0x200000F4)  returns 0x00 (0000ms, 0579ms total)
T470F0 001:246 JLINK_WriteReg(R10, 0x00000000)  returns 0x00 (0000ms, 0579ms total)
T470F0 001:246 JLINK_WriteReg(R11, 0x00000000)  returns 0x00 (0000ms, 0579ms total)
T470F0 001:246 JLINK_WriteReg(R12, 0x00000000)  returns 0x00 (0000ms, 0579ms total)
T470F0 001:246 JLINK_WriteReg(R13 (SP), 0x20002000)  returns 0x00 (0001ms, 0580ms total)
T470F0 001:247 JLINK_WriteReg(R14, 0x20000001)  returns 0x00 (0000ms, 0580ms total)
T470F0 001:247 JLINK_WriteReg(R15 (PC), 0x20000078)  returns 0x00 (0000ms, 0580ms total)
T470F0 001:247 JLINK_WriteReg(XPSR, 0x01000000)  returns 0x00 (0000ms, 0580ms total)
T470F0 001:247 JLINK_WriteReg(MSP, 0x20002000)  returns 0x00 (0000ms, 0580ms total)
T470F0 001:247 JLINK_WriteReg(PSP, 0x20002000)  returns 0x00 (0000ms, 0580ms total)
T470F0 001:247 JLINK_WriteReg(CFBP, 0x00000000)  returns 0x00 (0000ms, 0580ms total)
T470F0 001:247 JLINK_SetBPEx(Addr = 0x20000000, Type = 0xFFFFFFF2)  returns 0x0000000B (0000ms, 0580ms total)
T470F0 001:247 JLINK_Go() -- CPU_ReadMem(4 bytes @ 0xE0001000) (0008ms, 0588ms total)
T470F0 001:255 JLINK_IsHalted() -- CPU_ReadMem(2 bytes @ 0x20000000)  returns TRUE (0012ms, 0600ms total)
T470F0 001:267 JLINK_ReadReg(R15 (PC))  returns 0x20000000 (0000ms, 0588ms total)
T470F0 001:267 JLINK_ClrBPEx(BPHandle = 0x0000000B)  returns 0x00 (0000ms, 0588ms total)
T470F0 001:267 JLINK_ReadReg(R0)  returns 0x00000000 (0000ms, 0588ms total)
T470F0 001:268 JLINK_WriteReg(R0, 0x00000001)  returns 0x00 (0000ms, 0588ms total)
T470F0 001:268 JLINK_WriteReg(R1, 0x00001000)  returns 0x00 (0000ms, 0588ms total)
T470F0 001:268 JLINK_WriteReg(R2, 0x000000FF)  returns 0x00 (0000ms, 0588ms total)
T470F0 001:268 JLINK_WriteReg(R3, 0x00000000)  returns 0x00 (0000ms, 0588ms total)
T470F0 001:268 JLINK_WriteReg(R4, 0x00000000)  returns 0x00 (0000ms, 0588ms total)
T470F0 001:268 JLINK_WriteReg(R5, 0x00000000)  returns 0x00 (0000ms, 0588ms total)
T470F0 001:268 JLINK_WriteReg(R6, 0x00000000)  returns 0x00 (0000ms, 0588ms total)
T470F0 001:268 JLINK_WriteReg(R7, 0x00000000)  returns 0x00 (0000ms, 0588ms total)
T470F0 001:268 JLINK_WriteReg(R8, 0x00000000)  returns 0x00 (0000ms, 0588ms total)
T470F0 001:268 JLINK_WriteReg(R9, 0x200000F4)  returns 0x00 (0000ms, 0588ms total)
T470F0 001:268 JLINK_WriteReg(R10, 0x00000000)  returns 0x00 (0000ms, 0588ms total)
T470F0 001:268 JLINK_WriteReg(R11, 0x00000000)  returns 0x00 (0000ms, 0588ms total)
T470F0 001:268 JLINK_WriteReg(R12, 0x00000000)  returns 0x00 (0000ms, 0588ms total)
T470F0 001:268 JLINK_WriteReg(R13 (SP), 0x20002000)  returns 0x00 (0000ms, 0588ms total)
T470F0 001:268 JLINK_WriteReg(R14, 0x20000001)  returns 0x00 (0000ms, 0588ms total)
T470F0 001:268 JLINK_WriteReg(R15 (PC), 0x20000052)  returns 0x00 (0000ms, 0588ms total)
T470F0 001:268 JLINK_WriteReg(XPSR, 0x01000000)  returns 0x00 (0000ms, 0588ms total)
T470F0 001:268 JLINK_WriteReg(MSP, 0x20002000)  returns 0x00 (0000ms, 0588ms total)
T470F0 001:268 JLINK_WriteReg(PSP, 0x20002000)  returns 0x00 (0000ms, 0588ms total)
T470F0 001:268 JLINK_WriteReg(CFBP, 0x00000000)  returns 0x00 (0000ms, 0588ms total)
T470F0 001:268 JLINK_SetBPEx(Addr = 0x20000000, Type = 0xFFFFFFF2)  returns 0x0000000C (0000ms, 0588ms total)
T470F0 001:268 JLINK_Go() -- CPU_ReadMem(4 bytes @ 0xE0001000) (0009ms, 0597ms total)
T470F0 001:277 JLINK_IsHalted() -- CPU_ReadMem(2 bytes @ 0x20000000)  returns TRUE (0012ms, 0609ms total)
T470F0 001:289 JLINK_ReadReg(R15 (PC))  returns 0x20000000 (0000ms, 0597ms total)
T470F0 001:289 JLINK_ClrBPEx(BPHandle = 0x0000000C)  returns 0x00 (0000ms, 0597ms total)
T470F0 001:289 JLINK_ReadReg(R0)  returns 0x00000000 (0000ms, 0597ms total)
T470F0 001:343 JLINK_WriteMem(0x20000000, 0x0228 Bytes, ...) - Data: 00 BE 0A E0 0D 78 2D 06 68 40 08 24 40 00 00 D3 ... -- CPU_WriteMem(552 bytes @ 0x20000000)  returns 0x228 (0009ms, 0606ms total)
T470F0 001:352 JLINK_WriteReg(R0, 0x00000000)  returns 0x00 (0000ms, 0606ms total)
T470F0 001:352 JLINK_WriteReg(R1, 0x03D09000)  returns 0x00 (0000ms, 0606ms total)
T470F0 001:352 JLINK_WriteReg(R2, 0x00000002)  returns 0x00 (0000ms, 0606ms total)
T470F0 001:352 JLINK_WriteReg(R3, 0x00000000)  returns 0x00 (0000ms, 0606ms total)
T470F0 001:352 JLINK_WriteReg(R4, 0x00000000)  returns 0x00 (0000ms, 0606ms total)
T470F0 001:352 JLINK_WriteReg(R5, 0x00000000)  returns 0x00 (0000ms, 0606ms total)
T470F0 001:352 JLINK_WriteReg(R6, 0x00000000)  returns 0x00 (0000ms, 0606ms total)
T470F0 001:352 JLINK_WriteReg(R7, 0x00000000)  returns 0x00 (0000ms, 0606ms total)
T470F0 001:352 JLINK_WriteReg(R8, 0x00000000)  returns 0x00 (0000ms, 0606ms total)
T470F0 001:352 JLINK_WriteReg(R9, 0x20000224)  returns 0x00 (0000ms, 0606ms total)
T470F0 001:352 JLINK_WriteReg(R10, 0x00000000)  returns 0x00 (0000ms, 0606ms total)
T470F0 001:352 JLINK_WriteReg(R11, 0x00000000)  returns 0x00 (0000ms, 0606ms total)
T470F0 001:352 JLINK_WriteReg(R12, 0x00000000)  returns 0x00 (0000ms, 0606ms total)
T470F0 001:352 JLINK_WriteReg(R13 (SP), 0x20002000)  returns 0x00 (0000ms, 0606ms total)
T470F0 001:352 JLINK_WriteReg(R14, 0x20000001)  returns 0x00 (0000ms, 0606ms total)
T470F0 001:352 JLINK_WriteReg(R15 (PC), 0x2000003C)  returns 0x00 (0000ms, 0606ms total)
T470F0 001:352 JLINK_WriteReg(XPSR, 0x01000000)  returns 0x00 (0000ms, 0606ms total)
T470F0 001:352 JLINK_WriteReg(MSP, 0x20002000)  returns 0x00 (0000ms, 0606ms total)
T470F0 001:352 JLINK_WriteReg(PSP, 0x20002000)  returns 0x00 (0000ms, 0606ms total)
T470F0 001:352 JLINK_WriteReg(CFBP, 0x00000000)  returns 0x00 (0000ms, 0606ms total)
T470F0 001:352 JLINK_SetBPEx(Addr = 0x20000000, Type = 0xFFFFFFF2) -- CPU_ReadMem(2 bytes @ 0x20000000)  returns 0x0000000D (0002ms, 0608ms total)
T470F0 001:354 JLINK_Go() -- CPU_WriteMem(2 bytes @ 0x20000000) -- CPU_ReadMem(4 bytes @ 0xE0001000) (0009ms, 0617ms total)
T470F0 001:363 JLINK_IsHalted() -- CPU_ReadMem(2 bytes @ 0x20000000)  returns TRUE (0011ms, 0628ms total)
T470F0 001:374 JLINK_ReadReg(R15 (PC))  returns 0x20000000 (0000ms, 0617ms total)
T470F0 001:374 JLINK_ClrBPEx(BPHandle = 0x0000000D)  returns 0x00 (0000ms, 0617ms total)
T470F0 001:374 JLINK_ReadReg(R0)  returns 0x00000000 (0000ms, 0617ms total)
T470F0 001:374 JLINK_WriteMem(0x20000228, 0x0DD8 Bytes, ...) - Data: 08 68 00 20 49 34 07 00 51 34 07 00 53 34 07 00 ... -- CPU_WriteMem(3544 bytes @ 0x20000228)  returns 0xDD8 (0048ms, 0665ms total)
T470F0 001:422 JLINK_WriteMem(0x20001000, 0x0228 Bytes, ...) - Data: E1 69 E8 B2 88 47 E1 69 30 46 88 47 EB E7 00 00 ... -- CPU_WriteMem(552 bytes @ 0x20001000)  returns 0x228 (0010ms, 0675ms total)
T470F0 001:432 JLINK_WriteReg(R0, 0x00073000)  returns 0x00 (0000ms, 0675ms total)
T470F0 001:432 JLINK_WriteReg(R1, 0x00001000)  returns 0x00 (0000ms, 0675ms total)
T470F0 001:432 JLINK_WriteReg(R2, 0x20000228)  returns 0x00 (0000ms, 0675ms total)
T470F0 001:432 JLINK_WriteReg(R3, 0x00000000)  returns 0x00 (0000ms, 0675ms total)
T470F0 001:432 JLINK_WriteReg(R4, 0x00000000)  returns 0x00 (0000ms, 0675ms total)
T470F0 001:432 JLINK_WriteReg(R5, 0x00000000)  returns 0x00 (0000ms, 0675ms total)
T470F0 001:432 JLINK_WriteReg(R6, 0x00000000)  returns 0x00 (0000ms, 0675ms total)
T470F0 001:432 JLINK_WriteReg(R7, 0x00000000)  returns 0x00 (0000ms, 0675ms total)
T470F0 001:432 JLINK_WriteReg(R8, 0x00000000)  returns 0x00 (0000ms, 0675ms total)
T470F0 001:432 JLINK_WriteReg(R9, 0x20000224)  returns 0x00 (0000ms, 0675ms total)
T470F0 001:432 JLINK_WriteReg(R10, 0x00000000)  returns 0x00 (0000ms, 0675ms total)
T470F0 001:432 JLINK_WriteReg(R11, 0x00000000)  returns 0x00 (0001ms, 0676ms total)
T470F0 001:433 JLINK_WriteReg(R12, 0x00000000)  returns 0x00 (0000ms, 0676ms total)
T470F0 001:433 JLINK_WriteReg(R13 (SP), 0x20002000)  returns 0x00 (0000ms, 0676ms total)
T470F0 001:433 JLINK_WriteReg(R14, 0x20000001)  returns 0x00 (0000ms, 0676ms total)
T470F0 001:433 JLINK_WriteReg(R15 (PC), 0x2000014C)  returns 0x00 (0000ms, 0676ms total)
T470F0 001:433 JLINK_WriteReg(XPSR, 0x01000000)  returns 0x00 (0000ms, 0676ms total)
T470F0 001:433 JLINK_WriteReg(MSP, 0x20002000)  returns 0x00 (0000ms, 0676ms total)
T470F0 001:433 JLINK_WriteReg(PSP, 0x20002000)  returns 0x00 (0000ms, 0676ms total)
T470F0 001:433 JLINK_WriteReg(CFBP, 0x00000000)  returns 0x00 (0000ms, 0676ms total)
T470F0 001:433 JLINK_SetBPEx(Addr = 0x20000000, Type = 0xFFFFFFF2)  returns 0x0000000E (0000ms, 0676ms total)
T470F0 001:433 JLINK_Go() -- CPU_ReadMem(4 bytes @ 0xE0001000) (0008ms, 0684ms total)
T470F0 001:441 JLINK_IsHalted()  returns FALSE (0002ms, 0686ms total)
T470F0 001:513 JLINK_IsHalted() -- CPU_ReadMem(2 bytes @ 0x20000000)  returns TRUE (0011ms, 0695ms total)
T470F0 001:524 JLINK_ReadReg(R15 (PC))  returns 0x20000000 (0000ms, 0684ms total)
T470F0 001:524 JLINK_ClrBPEx(BPHandle = 0x0000000E)  returns 0x00 (0000ms, 0684ms total)
T470F0 001:524 JLINK_ReadReg(R0)  returns 0x00000000 (0000ms, 0684ms total)
T470F0 001:525 JLINK_WriteMem(0x20000228, 0x0DD8 Bytes, ...) - Data: 01 CF F1 17 C0 E9 00 61 40 E1 01 CF 06 80 3D E1 ... -- CPU_WriteMem(3544 bytes @ 0x20000228)  returns 0xDD8 (0049ms, 0733ms total)
T470F0 001:574 JLINK_WriteMem(0x20001000, 0x0228 Bytes, ...) - Data: 7F F9 18 B1 07 A2 70 21 FF F7 BC FA 4F F4 40 50 ... -- CPU_WriteMem(552 bytes @ 0x20001000)  returns 0x228 (0009ms, 0742ms total)
T470F0 001:583 JLINK_WriteReg(R0, 0x00074000)  returns 0x00 (0000ms, 0742ms total)
T470F0 001:583 JLINK_WriteReg(R1, 0x00001000)  returns 0x00 (0000ms, 0742ms total)
T470F0 001:583 JLINK_WriteReg(R2, 0x20000228)  returns 0x00 (0000ms, 0742ms total)
T470F0 001:583 JLINK_WriteReg(R3, 0x00000000)  returns 0x00 (0000ms, 0742ms total)
T470F0 001:583 JLINK_WriteReg(R4, 0x00000000)  returns 0x00 (0000ms, 0742ms total)
T470F0 001:583 JLINK_WriteReg(R5, 0x00000000)  returns 0x00 (0000ms, 0742ms total)
T470F0 001:583 JLINK_WriteReg(R6, 0x00000000)  returns 0x00 (0000ms, 0742ms total)
T470F0 001:583 JLINK_WriteReg(R7, 0x00000000)  returns 0x00 (0000ms, 0742ms total)
T470F0 001:583 JLINK_WriteReg(R8, 0x00000000)  returns 0x00 (0000ms, 0742ms total)
T470F0 001:583 JLINK_WriteReg(R9, 0x20000224)  returns 0x00 (0000ms, 0742ms total)
T470F0 001:583 JLINK_WriteReg(R10, 0x00000000)  returns 0x00 (0000ms, 0742ms total)
T470F0 001:583 JLINK_WriteReg(R11, 0x00000000)  returns 0x00 (0000ms, 0742ms total)
T470F0 001:583 JLINK_WriteReg(R12, 0x00000000)  returns 0x00 (0000ms, 0742ms total)
T470F0 001:583 JLINK_WriteReg(R13 (SP), 0x20002000)  returns 0x00 (0000ms, 0742ms total)
T470F0 001:583 JLINK_WriteReg(R14, 0x20000001)  returns 0x00 (0000ms, 0742ms total)
T470F0 001:583 JLINK_WriteReg(R15 (PC), 0x2000014C)  returns 0x00 (0000ms, 0742ms total)
T470F0 001:583 JLINK_WriteReg(XPSR, 0x01000000)  returns 0x00 (0000ms, 0742ms total)
T470F0 001:583 JLINK_WriteReg(MSP, 0x20002000)  returns 0x00 (0000ms, 0742ms total)
T470F0 001:583 JLINK_WriteReg(PSP, 0x20002000)  returns 0x00 (0000ms, 0742ms total)
T470F0 001:583 JLINK_WriteReg(CFBP, 0x00000000)  returns 0x00 (0000ms, 0742ms total)
T470F0 001:583 JLINK_SetBPEx(Addr = 0x20000000, Type = 0xFFFFFFF2)  returns 0x0000000F (0000ms, 0742ms total)
T470F0 001:583 JLINK_Go() -- CPU_ReadMem(4 bytes @ 0xE0001000) (0007ms, 0749ms total)
T470F0 001:590 JLINK_IsHalted()  returns FALSE (0002ms, 0751ms total)
T470F0 001:604 JLINK_IsHalted()  returns FALSE (0001ms, 0750ms total)
T470F0 001:606 JLINK_IsHalted()  returns FALSE (0001ms, 0750ms total)
T470F0 001:608 JLINK_IsHalted()  returns FALSE (0001ms, 0750ms total)
T470F0 001:610 JLINK_IsHalted()  returns FALSE (0001ms, 0750ms total)
T470F0 001:612 JLINK_IsHalted()  returns FALSE (0001ms, 0750ms total)
T470F0 001:614 JLINK_IsHalted()  returns FALSE (0001ms, 0750ms total)
T470F0 001:616 JLINK_IsHalted()  returns FALSE (0001ms, 0750ms total)
T470F0 001:618 JLINK_IsHalted()  returns FALSE (0001ms, 0750ms total)
T470F0 001:620 JLINK_IsHalted()  returns FALSE (0001ms, 0750ms total)
T470F0 001:622 JLINK_IsHalted()  returns FALSE (0001ms, 0750ms total)
T470F0 001:624 JLINK_IsHalted()  returns FALSE (0001ms, 0750ms total)
T470F0 001:626 JLINK_IsHalted()  returns FALSE (0001ms, 0751ms total)
T470F0 001:628 JLINK_IsHalted()  returns FALSE (0001ms, 0751ms total)
T470F0 001:631 JLINK_IsHalted()  returns FALSE (0001ms, 0751ms total)
T470F0 001:633 JLINK_IsHalted()  returns FALSE (0001ms, 0751ms total)
T470F0 001:635 JLINK_IsHalted()  returns FALSE (0001ms, 0751ms total)
T470F0 001:637 JLINK_IsHalted()  returns FALSE (0001ms, 0751ms total)
T470F0 001:639 JLINK_IsHalted()  returns FALSE (0001ms, 0751ms total)
T470F0 001:641 JLINK_IsHalted()  returns FALSE (0001ms, 0751ms total)
T470F0 001:643 JLINK_IsHalted()  returns FALSE (0001ms, 0751ms total)
T470F0 001:645 JLINK_IsHalted()  returns FALSE (0001ms, 0751ms total)
T470F0 001:647 JLINK_IsHalted()  returns FALSE (0001ms, 0751ms total)
T470F0 001:649 JLINK_IsHalted()  returns FALSE (0001ms, 0751ms total)
T470F0 001:651 JLINK_IsHalted()  returns FALSE (0001ms, 0752ms total)
T470F0 001:653 JLINK_IsHalted()  returns FALSE (0001ms, 0752ms total)
T470F0 001:655 JLINK_IsHalted()  returns FALSE (0001ms, 0752ms total)
T470F0 001:657 JLINK_IsHalted()  returns FALSE (0001ms, 0752ms total)
T470F0 001:659 JLINK_IsHalted()  returns FALSE (0001ms, 0752ms total)
T470F0 001:661 JLINK_IsHalted() -- CPU_ReadMem(2 bytes @ 0x20000000)  returns TRUE (0010ms, 0761ms total)
T470F0 001:671 JLINK_ReadReg(R15 (PC))  returns 0x20000000 (0001ms, 0752ms total)
T470F0 001:672 JLINK_ClrBPEx(BPHandle = 0x0000000F)  returns 0x00 (0000ms, 0752ms total)
T470F0 001:672 JLINK_ReadReg(R0)  returns 0x00000000 (0000ms, 0752ms total)
T470F0 001:673 JLINK_WriteMem(0x20000228, 0x0DD8 Bytes, ...) - Data: 5F 73 74 61 72 74 20 77 69 74 68 20 61 64 64 72 ... -- CPU_WriteMem(3544 bytes @ 0x20000228)  returns 0xDD8 (0057ms, 0809ms total)
T470F0 001:732 JLINK_WriteMem(0x20001000, 0x0228 Bytes, ...) - Data: 01 D9 00 26 00 E0 76 1B 48 A1 03 20 00 F0 B6 FD ... -- CPU_WriteMem(552 bytes @ 0x20001000)  returns 0x228 (0009ms, 0818ms total)
T470F0 001:741 JLINK_WriteReg(R0, 0x00075000)  returns 0x00 (0000ms, 0818ms total)
T470F0 001:741 JLINK_WriteReg(R1, 0x00001000)  returns 0x00 (0000ms, 0818ms total)
T470F0 001:741 JLINK_WriteReg(R2, 0x20000228)  returns 0x00 (0000ms, 0818ms total)
T470F0 001:741 JLINK_WriteReg(R3, 0x00000000)  returns 0x00 (0000ms, 0818ms total)
T470F0 001:741 JLINK_WriteReg(R4, 0x00000000)  returns 0x00 (0000ms, 0818ms total)
T470F0 001:741 JLINK_WriteReg(R5, 0x00000000)  returns 0x00 (0000ms, 0818ms total)
T470F0 001:741 JLINK_WriteReg(R6, 0x00000000)  returns 0x00 (0000ms, 0818ms total)
T470F0 001:741 JLINK_WriteReg(R7, 0x00000000)  returns 0x00 (0000ms, 0818ms total)
T470F0 001:741 JLINK_WriteReg(R8, 0x00000000)  returns 0x00 (0000ms, 0818ms total)
T470F0 001:741 JLINK_WriteReg(R9, 0x20000224)  returns 0x00 (0000ms, 0818ms total)
T470F0 001:741 JLINK_WriteReg(R10, 0x00000000)  returns 0x00 (0001ms, 0819ms total)
T470F0 001:742 JLINK_WriteReg(R11, 0x00000000)  returns 0x00 (0000ms, 0819ms total)
T470F0 001:742 JLINK_WriteReg(R12, 0x00000000)  returns 0x00 (0000ms, 0819ms total)
T470F0 001:742 JLINK_WriteReg(R13 (SP), 0x20002000)  returns 0x00 (0000ms, 0819ms total)
T470F0 001:742 JLINK_WriteReg(R14, 0x20000001)  returns 0x00 (0000ms, 0819ms total)
T470F0 001:742 JLINK_WriteReg(R15 (PC), 0x2000014C)  returns 0x00 (0000ms, 0819ms total)
T470F0 001:742 JLINK_WriteReg(XPSR, 0x01000000)  returns 0x00 (0000ms, 0819ms total)
T470F0 001:742 JLINK_WriteReg(MSP, 0x20002000)  returns 0x00 (0000ms, 0819ms total)
T470F0 001:742 JLINK_WriteReg(PSP, 0x20002000)  returns 0x00 (0000ms, 0819ms total)
T470F0 001:742 JLINK_WriteReg(CFBP, 0x00000000)  returns 0x00 (0000ms, 0819ms total)
T470F0 001:742 JLINK_SetBPEx(Addr = 0x20000000, Type = 0xFFFFFFF2)  returns 0x00000010 (0000ms, 0819ms total)
T470F0 001:742 JLINK_Go() -- CPU_ReadMem(4 bytes @ 0xE0001000) (0008ms, 0827ms total)
T470F0 001:750 JLINK_IsHalted()  returns FALSE (0002ms, 0829ms total)
T470F0 001:755 JLINK_IsHalted()  returns FALSE (0002ms, 0829ms total)
T470F0 001:758 JLINK_IsHalted()  returns FALSE (0001ms, 0828ms total)
T470F0 001:760 JLINK_IsHalted()  returns FALSE (0001ms, 0828ms total)
T470F0 001:762 JLINK_IsHalted()  returns FALSE (0001ms, 0828ms total)
T470F0 001:764 JLINK_IsHalted()  returns FALSE (0002ms, 0829ms total)
T470F0 001:767 JLINK_IsHalted()  returns FALSE (0002ms, 0829ms total)
T470F0 001:770 JLINK_IsHalted()  returns FALSE (0001ms, 0828ms total)
T470F0 001:772 JLINK_IsHalted()  returns FALSE (0001ms, 0828ms total)
T470F0 001:774 JLINK_IsHalted()  returns FALSE (0002ms, 0829ms total)
T470F0 001:777 JLINK_IsHalted()  returns FALSE (0002ms, 0829ms total)
T470F0 001:780 JLINK_IsHalted()  returns FALSE (0001ms, 0828ms total)
T470F0 001:782 JLINK_IsHalted()  returns FALSE (0001ms, 0828ms total)
T470F0 001:784 JLINK_IsHalted()  returns FALSE (0001ms, 0828ms total)
T470F0 001:786 JLINK_IsHalted()  returns FALSE (0002ms, 0829ms total)
T470F0 001:789 JLINK_IsHalted()  returns FALSE (0001ms, 0828ms total)
T470F0 001:791 JLINK_IsHalted()  returns FALSE (0001ms, 0828ms total)
T470F0 001:793 JLINK_IsHalted()  returns FALSE (0001ms, 0828ms total)
T470F0 001:795 JLINK_IsHalted()  returns FALSE (0001ms, 0828ms total)
T470F0 001:833 JLINK_IsHalted() -- CPU_ReadMem(2 bytes @ 0x20000000)  returns TRUE (0013ms, 0840ms total)
T470F0 001:846 JLINK_ReadReg(R15 (PC))  returns 0x20000000 (0000ms, 0827ms total)
T470F0 001:846 JLINK_ClrBPEx(BPHandle = 0x00000010)  returns 0x00 (0000ms, 0827ms total)
T470F0 001:846 JLINK_ReadReg(R0)  returns 0x00000000 (0000ms, 0827ms total)
T470F0 001:846 JLINK_WriteMem(0x20000228, 0x0DD8 Bytes, ...) - Data: 01 F0 7A FF 00 22 01 21 18 48 FF F7 11 FC 07 28 ... -- CPU_WriteMem(3544 bytes @ 0x20000228)  returns 0xDD8 (0049ms, 0876ms total)
T470F0 001:895 JLINK_WriteMem(0x20001000, 0x0228 Bytes, ...) - Data: 54 46 54 50 3A 44 45 42 55 47 3A 3C 3C 20 54 46 ... -- CPU_WriteMem(552 bytes @ 0x20001000)  returns 0x228 (0010ms, 0886ms total)
T470F0 001:905 JLINK_WriteReg(R0, 0x00076000)  returns 0x00 (0000ms, 0886ms total)
T470F0 001:905 JLINK_WriteReg(R1, 0x00001000)  returns 0x00 (0000ms, 0886ms total)
T470F0 001:905 JLINK_WriteReg(R2, 0x20000228)  returns 0x00 (0000ms, 0886ms total)
T470F0 001:905 JLINK_WriteReg(R3, 0x00000000)  returns 0x00 (0000ms, 0886ms total)
